
T1B08 000:457 SEGGER J-Link V4.80g Log File (0001ms, 0273ms total)
T1B08 000:457 DLL Compiled: Feb 13 2014 20:50:02 (0001ms, 0273ms total)
T1B08 000:457 Logging started @ 2017-01-08 12:40 (0001ms, 0273ms total)
T1B08 000:458 JLINK_SetWarnOutHandler(...) (0000ms, 0273ms total)
T1B08 000:458 JLINK_OpenEx(...)
Firmware: J-Link ARM-OB STM32 compiled Aug 22 2012 19:52:04
Hardware: V7.00
S/N: 20090928
Feature(s): RDI,FlashDL,FlashBP,JFlash,GDBFull  returns O.K. (0270ms, 0543ms total)
T1B08 000:728 JLINK_SetErrorOutHandler(...) (0000ms, 0543ms total)
T1B08 000:728 JLINK_ExecCommand("ProjectFile = "E:\fangProject\SmartSwitch_LiteOs_Base\Project\JLinkSettings.ini"", ...)  returns 0x00 (0000ms, 0543ms total)
T1B08 000:734 JLINK_ExecCommand("Device = STM32F103VE", ...)Device "STM32F103VE" selected (512 KB flash, 64 KB RAM).  returns 0x00 (0013ms, 0556ms total)
T1B08 000:747 JLINK_ExecCommand("DisableConnectionTimeout", ...)  returns 0x01 (0000ms, 0556ms total)
T1B08 000:747 JLINK_GetHardwareVersion()  returns 0x11170 (0000ms, 0556ms total)
T1B08 000:747 JLINK_GetDLLVersion()  returns 48007 (0000ms, 0556ms total)
T1B08 000:747 JLINK_GetFirmwareString(...) (0000ms, 0556ms total)
T1B08 000:766 JLINK_GetDLLVersion()  returns 48007 (0000ms, 0556ms total)
T1B08 000:766 JLINK_GetCompileDateTime() (0000ms, 0556ms total)
T1B08 000:793 JLINK_GetFirmwareString(...) (0000ms, 0556ms total)
T1B08 000:802 JLINK_GetHardwareVersion()  returns 0x11170 (0000ms, 0556ms total)
T1B08 000:818 JLINK_TIF_Select(JLINKARM_TIF_SWD)  returns 0x00 (0002ms, 0558ms total)
T1B08 000:820 JLINK_SetSpeed(2000) (0000ms, 0558ms total)
T1B08 000:820 JLINK_GetId() >0x108 TIF>Found SWD-DP with ID 0x1BA01477 >0x0D TIF> >0x28 TIF> >0x0D TIF> >0x28 TIF> >0x0D TIF> >0x21 TIF> >0x0D TIF> >0x28 TIF> >0x0D TIF> >0x28 TIF> >0x0D TIF> >0x28 TIF> >0x0D TIF> >0x21 TIF> >0x0D TIF> >0x21 TIF> >0x0D TIF> >0x28 TIF> >0x0D TIF> >0x21 TIF> >0x0D TIF> >0x21 TIF> >0x0D TIF> >0x28 TIF> >0x0D TIF> >0x28 TIF> >0x108 TIF>Found SWD-DP with ID 0x1BA01477 >0x0D TIF> >0x21 TIF> >0x0D TIF> >0x28 TIF> >0x0D TIF> >0x28 TIF> >0x0D TIF> >0x21 TIF> >0x0D TIF> >0x28 TIF>
 >0x0D TIF> >0x21 TIF> >0x0D TIF> >0x21 TIF> >0x0D TIF> >0x21 TIF> >0x0D TIF> >0x21 TIF> >0x0D TIF> >0x28 TIF> >0x0D TIF> >0x28 TIF> >0x0D TIF> >0x21 TIF> >0x0D TIF> >0x28 TIF> >0x0D TIF> >0x28 TIF> >0x0D TIF> >0x28 TIF> >0x0D TIF> >0x21 TIF> >0x0D TIF> >0x21 TIF> >0x0D TIF> >0x28 TIF> >0x0D TIF> >0x21 TIF> >0x0D TIF> >0x21 TIF>Found Cortex-M3 r1p1, Little endian. -- CPU_WriteMem(4 bytes @ 0xE0002000) -- CPU_ReadMem(4 bytes @ 0xE000EDF0) -- CPU_WriteMem(4 bytes @ 0xE000EDF0)
 -- CPU_ReadMem(4 bytes @ 0xE0002000)FPUnit: 6 code (BP) slots and 2 literal slots -- CPU_ReadMem(4 bytes @ 0xE000EDFC) -- CPU_WriteMem(4 bytes @ 0xE000EDFC) -- CPU_ReadMem(4 bytes @ 0xE0001000) -- CPU_WriteMem(4 bytes @ 0xE0001000) -- CPU_ReadMem(4 bytes @ 0xE00FF010)TPIU fitted. -- CPU_ReadMem(4 bytes @ 0xE00FF014)ETM fitted. -- CPU_ReadMem(4 bytes @ 0xE00FF018) >0x0D TIF> >0x21 TIF>  returns 0x1BA01477 (0084ms, 0642ms total)
T1B08 000:904 JLINK_GetDeviceFamily()  returns 3 (0000ms, 0642ms total)
T1B08 000:908 JLINK_ReadMem (0xE00FFFF0, 0x0010 Bytes, ...) -- CPU is running -- CPU_ReadMem(16 bytes @ 0xE00FFFF0) -- Data:  0D 00 00 00 10 00 00 00 05 00 00 00 B1 00 00 00  returns 0x00 (0001ms, 0643ms total)
T1B08 000:909 JLINK_ReadMem (0xE00FFFD0, 0x0020 Bytes, ...) -- CPU is running -- CPU_ReadMem(32 bytes @ 0xE00FFFD0) -- Data:  00 00 00 00 00 00 00 00 00 00 00 00 00 00 00 00 ...  returns 0x00 (0001ms, 0644ms total)
T1B08 000:910 JLINK_ReadMem (0xE00FF000, 0x0018 Bytes, ...) -- CPU is running -- CPU_ReadMem(24 bytes @ 0xE00FF000) -- Data:  03 F0 F0 FF 03 20 F0 FF 03 30 F0 FF 03 10 F0 FF ...  returns 0x00 (0001ms, 0645ms total)
T1B08 000:911 JLINK_ReadMemU32(0xE000ED00, 0x0001 Items, ...) -- CPU is running -- CPU_ReadMem(4 bytes @ 0xE000ED00) -- Data:  31 C2 1F 41  returns 0x01 (0001ms, 0646ms total)
T1B08 000:912 JLINK_SetResetType(JLINKARM_RESET_TYPE_NORMAL)  returns JLINKARM_RESET_TYPE_NORMAL (0000ms, 0646ms total)
T1B08 000:912 JLINK_Reset() -- CPU is running -- CPU_WriteMem(4 bytes @ 0xE000EDF0) -- CPU is running -- CPU_WriteMem(4 bytes @ 0xE000EDFC) >0x35 TIF> -- CPU is running -- CPU_WriteMem(4 bytes @ 0xE000ED0C) -- CPU is running -- CPU_ReadMem(4 bytes @ 0xE000EDF0) -- CPU is running -- CPU_ReadMem(4 bytes @ 0xE000EDF0) -- CPU is running -- CPU_WriteMem(4 bytes @ 0xE000EDF0) -- CPU is running -- CPU_WriteMem(4 bytes @ 0xE000EDFC) -- CPU is running -- CPU_ReadMem(4 bytes @ 0xE000EDF0)
 -- CPU_WriteMem(4 bytes @ 0xE0002000) -- CPU_ReadMem(4 bytes @ 0xE000EDFC) -- CPU_ReadMem(4 bytes @ 0xE0001000) (0022ms, 0668ms total)
T1B08 000:934 JLINK_Halt()  returns 0x00 (0000ms, 0668ms total)
T1B08 000:934 JLINK_IsHalted()  returns TRUE (0000ms, 0668ms total)
T1B08 000:934 JLINK_ReadMemU32(0xE000EDF0, 0x0001 Items, ...) -- CPU_ReadMem(4 bytes @ 0xE000EDF0) -- Data:  03 00 03 00  returns 0x01 (0001ms, 0669ms total)
T1B08 000:935 JLINK_WriteU32(0xE000EDF0, 0xA05F0003) -- CPU_WriteMem(4 bytes @ 0xE000EDF0)  returns 0x00 (0001ms, 0670ms total)
T1B08 000:936 JLINK_WriteU32(0xE000EDFC, 0x01000000) -- CPU_WriteMem(4 bytes @ 0xE000EDFC)  returns 0x00 (0001ms, 0671ms total)
T1B08 000:954 JLINK_GetHWStatus(...)  returns 0x00 (0001ms, 0672ms total)
T1B08 000:965 JLINK_GetNumBPUnits(Type = 0xFFFFFF00)  returns 0x06 (0000ms, 0672ms total)
T1B08 000:965 JLINK_GetNumBPUnits(Type = 0xF0)  returns 0x2000 (0000ms, 0672ms total)
T1B08 000:965 JLINK_GetNumWPUnits()  returns 0x04 (0000ms, 0672ms total)
T1B08 000:979 JLINK_GetSpeed()  returns 0x7D0 (0000ms, 0672ms total)
T1B08 000:990 JLINK_ReadMemU32(0xE000E004, 0x0001 Items, ...) -- CPU_ReadMem(4 bytes @ 0xE000E004) -- Data:  01 00 00 00  returns 0x01 (0001ms, 0673ms total)
T1B08 000:991 JLINK_ReadMemU32(0xE000E004, 0x0001 Items, ...) -- CPU_ReadMem(4 bytes @ 0xE000E004) -- Data:  01 00 00 00  returns 0x01 (0002ms, 0675ms total)
T1B08 000:993 JLINK_WriteMem(0xE0001000, 0x001C Bytes, ...) -- Data:  01 00 00 00 00 00 00 00 00 00 00 00 00 00 00 00 ... -- CPU_WriteMem(28 bytes @ 0xE0001000)  returns 0x1C (0001ms, 0676ms total)
T1B08 000:994 JLINK_ReadMem (0xE0001000, 0x001C Bytes, ...) -- CPU_ReadMem(28 bytes @ 0xE0001000) -- Data:  01 00 00 40 00 00 00 00 00 00 00 00 00 00 00 00 ...  returns 0x00 (0001ms, 0677ms total)
T1B08 000:995 JLINK_Halt()  returns 0x00 (0000ms, 0677ms total)
T1B08 000:995 JLINK_IsHalted()  returns TRUE (0000ms, 0677ms total)
T1B08 001:002 JLINK_WriteMem(0x20000000, 0x0164 Bytes, ...) -- Data:  00 BE 0A E0 0D 78 2D 06 68 40 08 24 40 00 00 D3 ... -- CPU_WriteMem(356 bytes @ 0x20000000)  returns 0x164 (0006ms, 0683ms total)
T1B08 001:008 JLINK_WriteReg(R0, 0x08000000)  returns 0x00 (0000ms, 0683ms total)
T1B08 001:008 JLINK_WriteReg(R1, 0x007A1200)  returns 0x00 (0000ms, 0683ms total)
T1B08 001:008 JLINK_WriteReg(R2, 0x00000001)  returns 0x00 (0000ms, 0683ms total)
T1B08 001:008 JLINK_WriteReg(R3, 0x00000000)  returns 0x00 (0000ms, 0683ms total)
T1B08 001:008 JLINK_WriteReg(R4, 0x00000000)  returns 0x00 (0000ms, 0683ms total)
T1B08 001:008 JLINK_WriteReg(R5, 0x00000000)  returns 0x00 (0000ms, 0683ms total)
T1B08 001:008 JLINK_WriteReg(R6, 0x00000000)  returns 0x00 (0000ms, 0683ms total)
T1B08 001:008 JLINK_WriteReg(R7, 0x00000000)  returns 0x00 (0000ms, 0683ms total)
T1B08 001:008 JLINK_WriteReg(R8, 0x00000000)  returns 0x00 (0000ms, 0683ms total)
T1B08 001:008 JLINK_WriteReg(R9, 0x20000160)  returns 0x00 (0000ms, 0683ms total)
T1B08 001:008 JLINK_WriteReg(R10, 0x00000000)  returns 0x00 (0000ms, 0683ms total)
T1B08 001:008 JLINK_WriteReg(R11, 0x00000000)  returns 0x00 (0000ms, 0683ms total)
T1B08 001:008 JLINK_WriteReg(R12, 0x00000000)  returns 0x00 (0000ms, 0683ms total)
T1B08 001:008 JLINK_WriteReg(R13 (SP), 0x20000800)  returns 0x00 (0000ms, 0683ms total)
T1B08 001:008 JLINK_WriteReg(R14, 0x20000001)  returns 0x00 (0000ms, 0683ms total)
T1B08 001:008 JLINK_WriteReg(R15 (PC), 0x20000038)  returns 0x00 (0000ms, 0683ms total)
T1B08 001:008 JLINK_WriteReg(XPSR, 0x01000000)  returns 0x00 (0000ms, 0683ms total)
T1B08 001:008 JLINK_WriteReg(MSP, 0x20000800)  returns 0x00 (0000ms, 0683ms total)
T1B08 001:008 JLINK_WriteReg(PSP, 0x20000800)  returns 0x00 (0000ms, 0683ms total)
T1B08 001:008 JLINK_WriteReg(CFBP, 0x00000000)  returns 0x00 (0000ms, 0683ms total)
T1B08 001:008 JLINK_SetBPEx(Addr = 0x20000000, Type = 0xFFFFFFF2) -- CPU_ReadMem(2 bytes @ 0x20000000)  returns 0x00000001 (0001ms, 0684ms total)
T1B08 001:009 JLINK_Go() -- CPU_WriteMem(2 bytes @ 0x20000000) -- CPU_WriteMem(4 bytes @ 0xE0002008) -- CPU_WriteMem(4 bytes @ 0xE000200C) -- CPU_WriteMem(4 bytes @ 0xE0002010) -- CPU_WriteMem(4 bytes @ 0xE0002014) -- CPU_WriteMem(4 bytes @ 0xE0002018) -- CPU_WriteMem(4 bytes @ 0xE000201C) -- CPU_WriteMem(4 bytes @ 0xE0001004) (0011ms, 0695ms total)
T1B08 001:020 JLINK_IsHalted() -- CPU_ReadMem(2 bytes @ 0x20000000)  returns TRUE (0005ms, 0700ms total)
T1B08 001:025 JLINK_ReadReg(R15 (PC))  returns 0x20000000 (0000ms, 0695ms total)
T1B08 001:025 JLINK_ClrBPEx(BPHandle = 0x00000001)  returns 0x00 (0000ms, 0695ms total)
T1B08 001:025 JLINK_ReadReg(R0)  returns 0x00000000 (0000ms, 0695ms total)
T1B08 001:026 JLINK_WriteReg(R0, 0x08000000)  returns 0x00 (0000ms, 0695ms total)
T1B08 001:026 JLINK_WriteReg(R1, 0x00000800)  returns 0x00 (0000ms, 0695ms total)
T1B08 001:026 JLINK_WriteReg(R2, 0x000000FF)  returns 0x00 (0000ms, 0695ms total)
T1B08 001:026 JLINK_WriteReg(R3, 0x00000000)  returns 0x00 (0000ms, 0695ms total)
T1B08 001:026 JLINK_WriteReg(R4, 0x00000000)  returns 0x00 (0000ms, 0695ms total)
T1B08 001:026 JLINK_WriteReg(R5, 0x00000000)  returns 0x00 (0000ms, 0695ms total)
T1B08 001:026 JLINK_WriteReg(R6, 0x00000000)  returns 0x00 (0000ms, 0695ms total)
T1B08 001:026 JLINK_WriteReg(R7, 0x00000000)  returns 0x00 (0000ms, 0695ms total)
T1B08 001:026 JLINK_WriteReg(R8, 0x00000000)  returns 0x00 (0000ms, 0695ms total)
T1B08 001:026 JLINK_WriteReg(R9, 0x20000160)  returns 0x00 (0000ms, 0695ms total)
T1B08 001:026 JLINK_WriteReg(R10, 0x00000000)  returns 0x00 (0000ms, 0695ms total)
T1B08 001:026 JLINK_WriteReg(R11, 0x00000000)  returns 0x00 (0000ms, 0695ms total)
T1B08 001:026 JLINK_WriteReg(R12, 0x00000000)  returns 0x00 (0000ms, 0695ms total)
T1B08 001:026 JLINK_WriteReg(R13 (SP), 0x20000800)  returns 0x00 (0000ms, 0695ms total)
T1B08 001:026 JLINK_WriteReg(R14, 0x20000001)  returns 0x00 (0000ms, 0695ms total)
T1B08 001:026 JLINK_WriteReg(R15 (PC), 0x20000020)  returns 0x00 (0000ms, 0695ms total)
T1B08 001:026 JLINK_WriteReg(XPSR, 0x01000000)  returns 0x00 (0000ms, 0695ms total)
T1B08 001:026 JLINK_WriteReg(MSP, 0x20000800)  returns 0x00 (0000ms, 0695ms total)
T1B08 001:026 JLINK_WriteReg(PSP, 0x20000800)  returns 0x00 (0000ms, 0695ms total)
T1B08 001:026 JLINK_WriteReg(CFBP, 0x00000000)  returns 0x00 (0000ms, 0695ms total)
T1B08 001:026 JLINK_SetBPEx(Addr = 0x20000000, Type = 0xFFFFFFF2)  returns 0x00000002 (0000ms, 0695ms total)
T1B08 001:026 JLINK_Go() (0002ms, 0697ms total)
T1B08 001:028 JLINK_IsHalted() -- CPU_ReadMem(2 bytes @ 0x20000000)  returns TRUE (0005ms, 0702ms total)
T1B08 001:033 JLINK_ReadReg(R15 (PC))  returns 0x20000000 (0001ms, 0698ms total)
T1B08 001:034 JLINK_ClrBPEx(BPHandle = 0x00000002)  returns 0x00 (0000ms, 0698ms total)
T1B08 001:034 JLINK_ReadReg(R0)  returns 0x00000001 (0000ms, 0698ms total)
T1B08 001:034 JLINK_WriteReg(R0, 0x08000000)  returns 0x00 (0000ms, 0698ms total)
T1B08 001:034 JLINK_WriteReg(R1, 0x00000800)  returns 0x00 (0000ms, 0698ms total)
T1B08 001:034 JLINK_WriteReg(R2, 0x000000FF)  returns 0x00 (0000ms, 0698ms total)
T1B08 001:034 JLINK_WriteReg(R3, 0x00000000)  returns 0x00 (0000ms, 0698ms total)
T1B08 001:034 JLINK_WriteReg(R4, 0x00000000)  returns 0x00 (0000ms, 0698ms total)
T1B08 001:034 JLINK_WriteReg(R5, 0x00000000)  returns 0x00 (0000ms, 0698ms total)
T1B08 001:034 JLINK_WriteReg(R6, 0x00000000)  returns 0x00 (0000ms, 0698ms total)
T1B08 001:034 JLINK_WriteReg(R7, 0x00000000)  returns 0x00 (0000ms, 0698ms total)
T1B08 001:034 JLINK_WriteReg(R8, 0x00000000)  returns 0x00 (0000ms, 0698ms total)
T1B08 001:034 JLINK_WriteReg(R9, 0x20000160)  returns 0x00 (0000ms, 0698ms total)
T1B08 001:034 JLINK_WriteReg(R10, 0x00000000)  returns 0x00 (0000ms, 0698ms total)
T1B08 001:034 JLINK_WriteReg(R11, 0x00000000)  returns 0x00 (0000ms, 0698ms total)
T1B08 001:034 JLINK_WriteReg(R12, 0x00000000)  returns 0x00 (0000ms, 0698ms total)
T1B08 001:034 JLINK_WriteReg(R13 (SP), 0x20000800)  returns 0x00 (0000ms, 0698ms total)
T1B08 001:034 JLINK_WriteReg(R14, 0x20000001)  returns 0x00 (0000ms, 0698ms total)
T1B08 001:034 JLINK_WriteReg(R15 (PC), 0x200000B6)  returns 0x00 (0000ms, 0698ms total)
T1B08 001:034 JLINK_WriteReg(XPSR, 0x01000000)  returns 0x00 (0000ms, 0698ms total)
T1B08 001:034 JLINK_WriteReg(MSP, 0x20000800)  returns 0x00 (0000ms, 0698ms total)
T1B08 001:034 JLINK_WriteReg(PSP, 0x20000800)  returns 0x00 (0000ms, 0698ms total)
T1B08 001:034 JLINK_WriteReg(CFBP, 0x00000000)  returns 0x00 (0000ms, 0698ms total)
T1B08 001:034 JLINK_SetBPEx(Addr = 0x20000000, Type = 0xFFFFFFF2)  returns 0x00000003 (0000ms, 0698ms total)
T1B08 001:034 JLINK_Go() (0002ms, 0700ms total)
T1B08 001:036 JLINK_IsHalted()  returns FALSE (0001ms, 0701ms total)
T1B08 001:077 JLINK_IsHalted() -- CPU_ReadMem(2 bytes @ 0x20000000)  returns TRUE (0005ms, 0705ms total)
T1B08 001:082 JLINK_ReadReg(R15 (PC))  returns 0x20000000 (0000ms, 0700ms total)
T1B08 001:082 JLINK_ClrBPEx(BPHandle = 0x00000003)  returns 0x00 (0000ms, 0700ms total)
T1B08 001:082 JLINK_ReadReg(R0)  returns 0x00000000 (0000ms, 0700ms total)
T1B08 001:083 JLINK_WriteReg(R0, 0x08000800)  returns 0x00 (0000ms, 0700ms total)
T1B08 001:083 JLINK_WriteReg(R1, 0x00000800)  returns 0x00 (0000ms, 0700ms total)
T1B08 001:083 JLINK_WriteReg(R2, 0x000000FF)  returns 0x00 (0000ms, 0700ms total)
T1B08 001:083 JLINK_WriteReg(R3, 0x00000000)  returns 0x00 (0000ms, 0700ms total)
T1B08 001:083 JLINK_WriteReg(R4, 0x00000000)  returns 0x00 (0000ms, 0700ms total)
T1B08 001:083 JLINK_WriteReg(R5, 0x00000000)  returns 0x00 (0000ms, 0700ms total)
T1B08 001:083 JLINK_WriteReg(R6, 0x00000000)  returns 0x00 (0000ms, 0700ms total)
T1B08 001:083 JLINK_WriteReg(R7, 0x00000000)  returns 0x00 (0000ms, 0700ms total)
T1B08 001:083 JLINK_WriteReg(R8, 0x00000000)  returns 0x00 (0000ms, 0700ms total)
T1B08 001:083 JLINK_WriteReg(R9, 0x20000160)  returns 0x00 (0000ms, 0700ms total)
T1B08 001:083 JLINK_WriteReg(R10, 0x00000000)  returns 0x00 (0000ms, 0700ms total)
T1B08 001:083 JLINK_WriteReg(R11, 0x00000000)  returns 0x00 (0000ms, 0700ms total)
T1B08 001:083 JLINK_WriteReg(R12, 0x00000000)  returns 0x00 (0000ms, 0700ms total)
T1B08 001:083 JLINK_WriteReg(R13 (SP), 0x20000800)  returns 0x00 (0000ms, 0700ms total)
T1B08 001:083 JLINK_WriteReg(R14, 0x20000001)  returns 0x00 (0000ms, 0700ms total)
T1B08 001:083 JLINK_WriteReg(R15 (PC), 0x20000020)  returns 0x00 (0000ms, 0700ms total)
T1B08 001:083 JLINK_WriteReg(XPSR, 0x01000000)  returns 0x00 (0000ms, 0700ms total)
T1B08 001:083 JLINK_WriteReg(MSP, 0x20000800)  returns 0x00 (0000ms, 0700ms total)
T1B08 001:083 JLINK_WriteReg(PSP, 0x20000800)  returns 0x00 (0000ms, 0700ms total)
T1B08 001:083 JLINK_WriteReg(CFBP, 0x00000000)  returns 0x00 (0000ms, 0700ms total)
T1B08 001:083 JLINK_SetBPEx(Addr = 0x20000000, Type = 0xFFFFFFF2)  returns 0x00000004 (0000ms, 0700ms total)
T1B08 001:083 JLINK_Go() (0002ms, 0702ms total)
T1B08 001:085 JLINK_IsHalted() -- CPU_ReadMem(2 bytes @ 0x20000000)  returns TRUE (0005ms, 0707ms total)
T1B08 001:090 JLINK_ReadReg(R15 (PC))  returns 0x20000000 (0000ms, 0702ms total)
T1B08 001:090 JLINK_ClrBPEx(BPHandle = 0x00000004)  returns 0x00 (0000ms, 0702ms total)
T1B08 001:090 JLINK_ReadReg(R0)  returns 0x00000001 (0000ms, 0702ms total)
T1B08 001:090 JLINK_WriteReg(R0, 0x08000800)  returns 0x00 (0000ms, 0702ms total)
T1B08 001:090 JLINK_WriteReg(R1, 0x00000800)  returns 0x00 (0000ms, 0702ms total)
T1B08 001:090 JLINK_WriteReg(R2, 0x000000FF)  returns 0x00 (0000ms, 0702ms total)
T1B08 001:091 JLINK_WriteReg(R3, 0x00000000)  returns 0x00 (0000ms, 0703ms total)
T1B08 001:091 JLINK_WriteReg(R4, 0x00000000)  returns 0x00 (0000ms, 0703ms total)
T1B08 001:091 JLINK_WriteReg(R5, 0x00000000)  returns 0x00 (0000ms, 0703ms total)
T1B08 001:091 JLINK_WriteReg(R6, 0x00000000)  returns 0x00 (0000ms, 0703ms total)
T1B08 001:091 JLINK_WriteReg(R7, 0x00000000)  returns 0x00 (0000ms, 0703ms total)
T1B08 001:091 JLINK_WriteReg(R8, 0x00000000)  returns 0x00 (0000ms, 0703ms total)
T1B08 001:091 JLINK_WriteReg(R9, 0x20000160)  returns 0x00 (0000ms, 0703ms total)
T1B08 001:091 JLINK_WriteReg(R10, 0x00000000)  returns 0x00 (0000ms, 0703ms total)
T1B08 001:091 JLINK_WriteReg(R11, 0x00000000)  returns 0x00 (0000ms, 0703ms total)
T1B08 001:091 JLINK_WriteReg(R12, 0x00000000)  returns 0x00 (0000ms, 0703ms total)
T1B08 001:091 JLINK_WriteReg(R13 (SP), 0x20000800)  returns 0x00 (0000ms, 0703ms total)
T1B08 001:091 JLINK_WriteReg(R14, 0x20000001)  returns 0x00 (0000ms, 0703ms total)
T1B08 001:091 JLINK_WriteReg(R15 (PC), 0x200000B6)  returns 0x00 (0000ms, 0703ms total)
T1B08 001:091 JLINK_WriteReg(XPSR, 0x01000000)  returns 0x00 (0000ms, 0703ms total)
T1B08 001:091 JLINK_WriteReg(MSP, 0x20000800)  returns 0x00 (0000ms, 0703ms total)
T1B08 001:091 JLINK_WriteReg(PSP, 0x20000800)  returns 0x00 (0000ms, 0703ms total)
T1B08 001:091 JLINK_WriteReg(CFBP, 0x00000000)  returns 0x00 (0000ms, 0703ms total)
T1B08 001:091 JLINK_SetBPEx(Addr = 0x20000000, Type = 0xFFFFFFF2)  returns 0x00000005 (0000ms, 0703ms total)
T1B08 001:091 JLINK_Go() (0002ms, 0705ms total)
T1B08 001:093 JLINK_IsHalted()  returns FALSE (0001ms, 0706ms total)
T1B08 001:100 JLINK_IsHalted()  returns FALSE (0000ms, 0705ms total)
T1B08 001:101 JLINK_IsHalted()  returns FALSE (0000ms, 0705ms total)
T1B08 001:102 JLINK_IsHalted()  returns FALSE (0000ms, 0705ms total)
T1B08 001:103 JLINK_IsHalted()  returns FALSE (0000ms, 0705ms total)
T1B08 001:104 JLINK_IsHalted()  returns FALSE (0000ms, 0705ms total)
T1B08 001:105 JLINK_IsHalted()  returns FALSE (0000ms, 0705ms total)
T1B08 001:106 JLINK_IsHalted()  returns FALSE (0000ms, 0705ms total)
T1B08 001:107 JLINK_IsHalted()  returns FALSE (0000ms, 0705ms total)
T1B08 001:108 JLINK_IsHalted()  returns FALSE (0000ms, 0705ms total)
T1B08 001:109 JLINK_IsHalted()  returns FALSE (0000ms, 0705ms total)
T1B08 001:110 JLINK_IsHalted()  returns FALSE (0000ms, 0705ms total)
T1B08 001:111 JLINK_IsHalted()  returns FALSE (0000ms, 0705ms total)
T1B08 001:112 JLINK_IsHalted()  returns FALSE (0000ms, 0705ms total)
T1B08 001:113 JLINK_IsHalted()  returns FALSE (0000ms, 0705ms total)
T1B08 001:114 JLINK_IsHalted()  returns FALSE (0000ms, 0705ms total)
T1B08 001:115 JLINK_IsHalted() -- CPU_ReadMem(2 bytes @ 0x20000000)  returns TRUE (0004ms, 0709ms total)
T1B08 001:119 JLINK_ReadReg(R15 (PC))  returns 0x20000000 (0000ms, 0705ms total)
T1B08 001:120 JLINK_ClrBPEx(BPHandle = 0x00000005)  returns 0x00 (0000ms, 0705ms total)
T1B08 001:120 JLINK_ReadReg(R0)  returns 0x00000000 (0000ms, 0705ms total)
T1B08 001:120 JLINK_WriteReg(R0, 0x08001000)  returns 0x00 (0000ms, 0705ms total)
T1B08 001:120 JLINK_WriteReg(R1, 0x00000800)  returns 0x00 (0000ms, 0705ms total)
T1B08 001:120 JLINK_WriteReg(R2, 0x000000FF)  returns 0x00 (0000ms, 0705ms total)
T1B08 001:120 JLINK_WriteReg(R3, 0x00000000)  returns 0x00 (0000ms, 0705ms total)
T1B08 001:120 JLINK_WriteReg(R4, 0x00000000)  returns 0x00 (0000ms, 0705ms total)
T1B08 001:120 JLINK_WriteReg(R5, 0x00000000)  returns 0x00 (0000ms, 0705ms total)
T1B08 001:120 JLINK_WriteReg(R6, 0x00000000)  returns 0x00 (0000ms, 0705ms total)
T1B08 001:120 JLINK_WriteReg(R7, 0x00000000)  returns 0x00 (0000ms, 0705ms total)
T1B08 001:120 JLINK_WriteReg(R8, 0x00000000)  returns 0x00 (0000ms, 0705ms total)
T1B08 001:120 JLINK_WriteReg(R9, 0x20000160)  returns 0x00 (0000ms, 0705ms total)
T1B08 001:120 JLINK_WriteReg(R10, 0x00000000)  returns 0x00 (0000ms, 0705ms total)
T1B08 001:120 JLINK_WriteReg(R11, 0x00000000)  returns 0x00 (0000ms, 0705ms total)
T1B08 001:120 JLINK_WriteReg(R12, 0x00000000)  returns 0x00 (0000ms, 0705ms total)
T1B08 001:120 JLINK_WriteReg(R13 (SP), 0x20000800)  returns 0x00 (0001ms, 0706ms total)
T1B08 001:121 JLINK_WriteReg(R14, 0x20000001)  returns 0x00 (0000ms, 0706ms total)
T1B08 001:121 JLINK_WriteReg(R15 (PC), 0x20000020)  returns 0x00 (0000ms, 0706ms total)
T1B08 001:121 JLINK_WriteReg(XPSR, 0x01000000)  returns 0x00 (0000ms, 0706ms total)
T1B08 001:121 JLINK_WriteReg(MSP, 0x20000800)  returns 0x00 (0000ms, 0706ms total)
T1B08 001:121 JLINK_WriteReg(PSP, 0x20000800)  returns 0x00 (0000ms, 0706ms total)
T1B08 001:121 JLINK_WriteReg(CFBP, 0x00000000)  returns 0x00 (0000ms, 0706ms total)
T1B08 001:121 JLINK_SetBPEx(Addr = 0x20000000, Type = 0xFFFFFFF2)  returns 0x00000006 (0000ms, 0706ms total)
T1B08 001:121 JLINK_Go() (0002ms, 0708ms total)
T1B08 001:123 JLINK_IsHalted() -- CPU_ReadMem(2 bytes @ 0x20000000)  returns TRUE (0005ms, 0713ms total)
T1B08 001:128 JLINK_ReadReg(R15 (PC))  returns 0x20000000 (0000ms, 0708ms total)
T1B08 001:128 JLINK_ClrBPEx(BPHandle = 0x00000006)  returns 0x00 (0000ms, 0708ms total)
T1B08 001:128 JLINK_ReadReg(R0)  returns 0x00000001 (0000ms, 0708ms total)
T1B08 001:128 JLINK_WriteReg(R0, 0x08001000)  returns 0x00 (0000ms, 0708ms total)
T1B08 001:128 JLINK_WriteReg(R1, 0x00000800)  returns 0x00 (0000ms, 0708ms total)
T1B08 001:128 JLINK_WriteReg(R2, 0x000000FF)  returns 0x00 (0000ms, 0708ms total)
T1B08 001:129 JLINK_WriteReg(R3, 0x00000000)  returns 0x00 (0000ms, 0708ms total)
T1B08 001:129 JLINK_WriteReg(R4, 0x00000000)  returns 0x00 (0000ms, 0708ms total)
T1B08 001:129 JLINK_WriteReg(R5, 0x00000000)  returns 0x00 (0000ms, 0708ms total)
T1B08 001:129 JLINK_WriteReg(R6, 0x00000000)  returns 0x00 (0000ms, 0708ms total)
T1B08 001:129 JLINK_WriteReg(R7, 0x00000000)  returns 0x00 (0000ms, 0708ms total)
T1B08 001:129 JLINK_WriteReg(R8, 0x00000000)  returns 0x00 (0000ms, 0708ms total)
T1B08 001:129 JLINK_WriteReg(R9, 0x20000160)  returns 0x00 (0000ms, 0708ms total)
T1B08 001:129 JLINK_WriteReg(R10, 0x00000000)  returns 0x00 (0000ms, 0708ms total)
T1B08 001:129 JLINK_WriteReg(R11, 0x00000000)  returns 0x00 (0000ms, 0708ms total)
T1B08 001:129 JLINK_WriteReg(R12, 0x00000000)  returns 0x00 (0000ms, 0708ms total)
T1B08 001:129 JLINK_WriteReg(R13 (SP), 0x20000800)  returns 0x00 (0000ms, 0708ms total)
T1B08 001:129 JLINK_WriteReg(R14, 0x20000001)  returns 0x00 (0000ms, 0708ms total)
T1B08 001:129 JLINK_WriteReg(R15 (PC), 0x200000B6)  returns 0x00 (0000ms, 0708ms total)
T1B08 001:129 JLINK_WriteReg(XPSR, 0x01000000)  returns 0x00 (0000ms, 0708ms total)
T1B08 001:129 JLINK_WriteReg(MSP, 0x20000800)  returns 0x00 (0000ms, 0708ms total)
T1B08 001:129 JLINK_WriteReg(PSP, 0x20000800)  returns 0x00 (0000ms, 0708ms total)
T1B08 001:129 JLINK_WriteReg(CFBP, 0x00000000)  returns 0x00 (0000ms, 0708ms total)
T1B08 001:129 JLINK_SetBPEx(Addr = 0x20000000, Type = 0xFFFFFFF2)  returns 0x00000007 (0000ms, 0708ms total)
T1B08 001:129 JLINK_Go() (0002ms, 0710ms total)
T1B08 001:131 JLINK_IsHalted()  returns FALSE (0001ms, 0711ms total)
T1B08 001:137 JLINK_IsHalted()  returns FALSE (0000ms, 0710ms total)
T1B08 001:138 JLINK_IsHalted()  returns FALSE (0000ms, 0710ms total)
T1B08 001:139 JLINK_IsHalted()  returns FALSE (0000ms, 0710ms total)
T1B08 001:140 JLINK_IsHalted()  returns FALSE (0000ms, 0710ms total)
T1B08 001:141 JLINK_IsHalted()  returns FALSE (0000ms, 0710ms total)
T1B08 001:142 JLINK_IsHalted()  returns FALSE (0000ms, 0710ms total)
T1B08 001:143 JLINK_IsHalted()  returns FALSE (0000ms, 0710ms total)
T1B08 001:148 JLINK_IsHalted()  returns FALSE (0000ms, 0710ms total)
T1B08 001:150 JLINK_IsHalted()  returns FALSE (0000ms, 0710ms total)
T1B08 001:152 JLINK_IsHalted()  returns FALSE (0001ms, 0711ms total)
T1B08 001:154 JLINK_IsHalted() -- CPU_ReadMem(2 bytes @ 0x20000000)  returns TRUE (0005ms, 0715ms total)
T1B08 001:159 JLINK_ReadReg(R15 (PC))  returns 0x20000000 (0000ms, 0710ms total)
T1B08 001:159 JLINK_ClrBPEx(BPHandle = 0x00000007)  returns 0x00 (0000ms, 0710ms total)
T1B08 001:159 JLINK_ReadReg(R0)  returns 0x00000000 (0000ms, 0710ms total)
T1B08 001:160 JLINK_WriteReg(R0, 0x08001800)  returns 0x00 (0000ms, 0710ms total)
T1B08 001:160 JLINK_WriteReg(R1, 0x00000800)  returns 0x00 (0000ms, 0710ms total)
T1B08 001:160 JLINK_WriteReg(R2, 0x000000FF)  returns 0x00 (0000ms, 0710ms total)
T1B08 001:160 JLINK_WriteReg(R3, 0x00000000)  returns 0x00 (0000ms, 0710ms total)
T1B08 001:160 JLINK_WriteReg(R4, 0x00000000)  returns 0x00 (0000ms, 0710ms total)
T1B08 001:160 JLINK_WriteReg(R5, 0x00000000)  returns 0x00 (0000ms, 0710ms total)
T1B08 001:160 JLINK_WriteReg(R6, 0x00000000)  returns 0x00 (0000ms, 0710ms total)
T1B08 001:160 JLINK_WriteReg(R7, 0x00000000)  returns 0x00 (0000ms, 0710ms total)
T1B08 001:160 JLINK_WriteReg(R8, 0x00000000)  returns 0x00 (0000ms, 0710ms total)
T1B08 001:160 JLINK_WriteReg(R9, 0x20000160)  returns 0x00 (0000ms, 0710ms total)
T1B08 001:160 JLINK_WriteReg(R10, 0x00000000)  returns 0x00 (0000ms, 0710ms total)
T1B08 001:160 JLINK_WriteReg(R11, 0x00000000)  returns 0x00 (0000ms, 0710ms total)
T1B08 001:160 JLINK_WriteReg(R12, 0x00000000)  returns 0x00 (0000ms, 0710ms total)
T1B08 001:160 JLINK_WriteReg(R13 (SP), 0x20000800)  returns 0x00 (0000ms, 0710ms total)
T1B08 001:160 JLINK_WriteReg(R14, 0x20000001)  returns 0x00 (0000ms, 0710ms total)
T1B08 001:160 JLINK_WriteReg(R15 (PC), 0x20000020)  returns 0x00 (0000ms, 0710ms total)
T1B08 001:160 JLINK_WriteReg(XPSR, 0x01000000)  returns 0x00 (0000ms, 0710ms total)
T1B08 001:160 JLINK_WriteReg(MSP, 0x20000800)  returns 0x00 (0000ms, 0710ms total)
T1B08 001:160 JLINK_WriteReg(PSP, 0x20000800)  returns 0x00 (0000ms, 0710ms total)
T1B08 001:160 JLINK_WriteReg(CFBP, 0x00000000)  returns 0x00 (0000ms, 0710ms total)
T1B08 001:160 JLINK_SetBPEx(Addr = 0x20000000, Type = 0xFFFFFFF2)  returns 0x00000008 (0000ms, 0710ms total)
T1B08 001:160 JLINK_Go() (0003ms, 0713ms total)
T1B08 001:163 JLINK_IsHalted() -- CPU_ReadMem(2 bytes @ 0x20000000)  returns TRUE (0005ms, 0718ms total)
T1B08 001:168 JLINK_ReadReg(R15 (PC))  returns 0x20000000 (0000ms, 0713ms total)
T1B08 001:168 JLINK_ClrBPEx(BPHandle = 0x00000008)  returns 0x00 (0000ms, 0713ms total)
T1B08 001:168 JLINK_ReadReg(R0)  returns 0x00000001 (0000ms, 0713ms total)
T1B08 001:168 JLINK_WriteReg(R0, 0x08001800)  returns 0x00 (0000ms, 0713ms total)
T1B08 001:168 JLINK_WriteReg(R1, 0x00000800)  returns 0x00 (0000ms, 0713ms total)
T1B08 001:168 JLINK_WriteReg(R2, 0x000000FF)  returns 0x00 (0000ms, 0713ms total)
T1B08 001:168 JLINK_WriteReg(R3, 0x00000000)  returns 0x00 (0000ms, 0713ms total)
T1B08 001:168 JLINK_WriteReg(R4, 0x00000000)  returns 0x00 (0000ms, 0713ms total)
T1B08 001:168 JLINK_WriteReg(R5, 0x00000000)  returns 0x00 (0000ms, 0713ms total)
T1B08 001:168 JLINK_WriteReg(R6, 0x00000000)  returns 0x00 (0000ms, 0713ms total)
T1B08 001:168 JLINK_WriteReg(R7, 0x00000000)  returns 0x00 (0000ms, 0713ms total)
T1B08 001:168 JLINK_WriteReg(R8, 0x00000000)  returns 0x00 (0000ms, 0713ms total)
T1B08 001:168 JLINK_WriteReg(R9, 0x20000160)  returns 0x00 (0000ms, 0713ms total)
T1B08 001:168 JLINK_WriteReg(R10, 0x00000000)  returns 0x00 (0000ms, 0713ms total)
T1B08 001:168 JLINK_WriteReg(R11, 0x00000000)  returns 0x00 (0000ms, 0713ms total)
T1B08 001:168 JLINK_WriteReg(R12, 0x00000000)  returns 0x00 (0000ms, 0713ms total)
T1B08 001:168 JLINK_WriteReg(R13 (SP), 0x20000800)  returns 0x00 (0000ms, 0713ms total)
T1B08 001:168 JLINK_WriteReg(R14, 0x20000001)  returns 0x00 (0000ms, 0713ms total)
T1B08 001:168 JLINK_WriteReg(R15 (PC), 0x200000B6)  returns 0x00 (0000ms, 0713ms total)
T1B08 001:168 JLINK_WriteReg(XPSR, 0x01000000)  returns 0x00 (0000ms, 0713ms total)
T1B08 001:168 JLINK_WriteReg(MSP, 0x20000800)  returns 0x00 (0000ms, 0713ms total)
T1B08 001:168 JLINK_WriteReg(PSP, 0x20000800)  returns 0x00 (0000ms, 0713ms total)
T1B08 001:168 JLINK_WriteReg(CFBP, 0x00000000)  returns 0x00 (0000ms, 0713ms total)
T1B08 001:168 JLINK_SetBPEx(Addr = 0x20000000, Type = 0xFFFFFFF2)  returns 0x00000009 (0000ms, 0713ms total)
T1B08 001:168 JLINK_Go() (0003ms, 0716ms total)
T1B08 001:171 JLINK_IsHalted()  returns FALSE (0000ms, 0716ms total)
T1B08 001:177 JLINK_IsHalted()  returns FALSE (0000ms, 0716ms total)
T1B08 001:178 JLINK_IsHalted()  returns FALSE (0000ms, 0716ms total)
T1B08 001:180 JLINK_IsHalted()  returns FALSE (0001ms, 0717ms total)
T1B08 001:182 JLINK_IsHalted()  returns FALSE (0001ms, 0717ms total)
T1B08 001:184 JLINK_IsHalted()  returns FALSE (0001ms, 0717ms total)
T1B08 001:186 JLINK_IsHalted()  returns FALSE (0001ms, 0717ms total)
T1B08 001:188 JLINK_IsHalted()  returns FALSE (0001ms, 0717ms total)
T1B08 001:191 JLINK_IsHalted()  returns FALSE (0001ms, 0717ms total)
T1B08 001:193 JLINK_IsHalted() -- CPU_ReadMem(2 bytes @ 0x20000000)  returns TRUE (0005ms, 0721ms total)
T1B08 001:198 JLINK_ReadReg(R15 (PC))  returns 0x20000000 (0000ms, 0716ms total)
T1B08 001:198 JLINK_ClrBPEx(BPHandle = 0x00000009)  returns 0x00 (0000ms, 0716ms total)
T1B08 001:198 JLINK_ReadReg(R0)  returns 0x00000000 (0000ms, 0716ms total)
T1B08 001:198 JLINK_WriteReg(R0, 0x08002000)  returns 0x00 (0000ms, 0716ms total)
T1B08 001:198 JLINK_WriteReg(R1, 0x00000800)  returns 0x00 (0001ms, 0717ms total)
T1B08 001:199 JLINK_WriteReg(R2, 0x000000FF)  returns 0x00 (0000ms, 0717ms total)
T1B08 001:199 JLINK_WriteReg(R3, 0x00000000)  returns 0x00 (0000ms, 0717ms total)
T1B08 001:199 JLINK_WriteReg(R4, 0x00000000)  returns 0x00 (0000ms, 0717ms total)
T1B08 001:199 JLINK_WriteReg(R5, 0x00000000)  returns 0x00 (0000ms, 0717ms total)
T1B08 001:199 JLINK_WriteReg(R6, 0x00000000)  returns 0x00 (0000ms, 0717ms total)
T1B08 001:199 JLINK_WriteReg(R7, 0x00000000)  returns 0x00 (0000ms, 0717ms total)
T1B08 001:199 JLINK_WriteReg(R8, 0x00000000)  returns 0x00 (0000ms, 0717ms total)
T1B08 001:199 JLINK_WriteReg(R9, 0x20000160)  returns 0x00 (0000ms, 0717ms total)
T1B08 001:199 JLINK_WriteReg(R10, 0x00000000)  returns 0x00 (0000ms, 0717ms total)
T1B08 001:199 JLINK_WriteReg(R11, 0x00000000)  returns 0x00 (0000ms, 0717ms total)
T1B08 001:199 JLINK_WriteReg(R12, 0x00000000)  returns 0x00 (0000ms, 0717ms total)
T1B08 001:199 JLINK_WriteReg(R13 (SP), 0x20000800)  returns 0x00 (0000ms, 0717ms total)
T1B08 001:199 JLINK_WriteReg(R14, 0x20000001)  returns 0x00 (0000ms, 0717ms total)
T1B08 001:199 JLINK_WriteReg(R15 (PC), 0x20000020)  returns 0x00 (0000ms, 0717ms total)
T1B08 001:199 JLINK_WriteReg(XPSR, 0x01000000)  returns 0x00 (0000ms, 0717ms total)
T1B08 001:199 JLINK_WriteReg(MSP, 0x20000800)  returns 0x00 (0000ms, 0717ms total)
T1B08 001:199 JLINK_WriteReg(PSP, 0x20000800)  returns 0x00 (0000ms, 0717ms total)
T1B08 001:199 JLINK_WriteReg(CFBP, 0x00000000)  returns 0x00 (0000ms, 0717ms total)
T1B08 001:199 JLINK_SetBPEx(Addr = 0x20000000, Type = 0xFFFFFFF2)  returns 0x0000000A (0000ms, 0717ms total)
T1B08 001:199 JLINK_Go() (0002ms, 0719ms total)
T1B08 001:201 JLINK_IsHalted() -- CPU_ReadMem(2 bytes @ 0x20000000)  returns TRUE (0005ms, 0724ms total)
T1B08 001:206 JLINK_ReadReg(R15 (PC))  returns 0x20000000 (0000ms, 0719ms total)
T1B08 001:206 JLINK_ClrBPEx(BPHandle = 0x0000000A)  returns 0x00 (0000ms, 0719ms total)
T1B08 001:206 JLINK_ReadReg(R0)  returns 0x00000001 (0000ms, 0719ms total)
T1B08 001:206 JLINK_WriteReg(R0, 0x08002000)  returns 0x00 (0000ms, 0719ms total)
T1B08 001:206 JLINK_WriteReg(R1, 0x00000800)  returns 0x00 (0000ms, 0719ms total)
T1B08 001:206 JLINK_WriteReg(R2, 0x000000FF)  returns 0x00 (0000ms, 0719ms total)
T1B08 001:206 JLINK_WriteReg(R3, 0x00000000)  returns 0x00 (0000ms, 0719ms total)
T1B08 001:206 JLINK_WriteReg(R4, 0x00000000)  returns 0x00 (0000ms, 0719ms total)
T1B08 001:206 JLINK_WriteReg(R5, 0x00000000)  returns 0x00 (0000ms, 0719ms total)
T1B08 001:206 JLINK_WriteReg(R6, 0x00000000)  returns 0x00 (0000ms, 0719ms total)
T1B08 001:206 JLINK_WriteReg(R7, 0x00000000)  returns 0x00 (0000ms, 0719ms total)
T1B08 001:206 JLINK_WriteReg(R8, 0x00000000)  returns 0x00 (0000ms, 0719ms total)
T1B08 001:206 JLINK_WriteReg(R9, 0x20000160)  returns 0x00 (0000ms, 0719ms total)
T1B08 001:206 JLINK_WriteReg(R10, 0x00000000)  returns 0x00 (0000ms, 0719ms total)
T1B08 001:206 JLINK_WriteReg(R11, 0x00000000)  returns 0x00 (0000ms, 0719ms total)
T1B08 001:206 JLINK_WriteReg(R12, 0x00000000)  returns 0x00 (0000ms, 0719ms total)
T1B08 001:206 JLINK_WriteReg(R13 (SP), 0x20000800)  returns 0x00 (0000ms, 0719ms total)
T1B08 001:206 JLINK_WriteReg(R14, 0x20000001)  returns 0x00 (0001ms, 0720ms total)
T1B08 001:207 JLINK_WriteReg(R15 (PC), 0x200000B6)  returns 0x00 (0000ms, 0720ms total)
T1B08 001:207 JLINK_WriteReg(XPSR, 0x01000000)  returns 0x00 (0000ms, 0720ms total)
T1B08 001:207 JLINK_WriteReg(MSP, 0x20000800)  returns 0x00 (0000ms, 0720ms total)
T1B08 001:207 JLINK_WriteReg(PSP, 0x20000800)  returns 0x00 (0000ms, 0720ms total)
T1B08 001:207 JLINK_WriteReg(CFBP, 0x00000000)  returns 0x00 (0000ms, 0720ms total)
T1B08 001:207 JLINK_SetBPEx(Addr = 0x20000000, Type = 0xFFFFFFF2)  returns 0x0000000B (0000ms, 0720ms total)
T1B08 001:207 JLINK_Go() (0002ms, 0722ms total)
T1B08 001:209 JLINK_IsHalted()  returns FALSE (0001ms, 0723ms total)
T1B08 001:211 JLINK_IsHalted()  returns FALSE (0000ms, 0722ms total)
T1B08 001:212 JLINK_IsHalted()  returns FALSE (0000ms, 0722ms total)
T1B08 001:213 JLINK_IsHalted()  returns FALSE (0000ms, 0722ms total)
T1B08 001:214 JLINK_IsHalted()  returns FALSE (0000ms, 0722ms total)
T1B08 001:215 JLINK_IsHalted()  returns FALSE (0000ms, 0722ms total)
T1B08 001:216 JLINK_IsHalted()  returns FALSE (0000ms, 0722ms total)
T1B08 001:217 JLINK_IsHalted()  returns FALSE (0000ms, 0722ms total)
T1B08 001:218 JLINK_IsHalted()  returns FALSE (0000ms, 0722ms total)
T1B08 001:219 JLINK_IsHalted()  returns FALSE (0000ms, 0722ms total)
T1B08 001:220 JLINK_IsHalted()  returns FALSE (0000ms, 0722ms total)
T1B08 001:221 JLINK_IsHalted()  returns FALSE (0000ms, 0722ms total)
T1B08 001:222 JLINK_IsHalted()  returns FALSE (0000ms, 0722ms total)
T1B08 001:223 JLINK_IsHalted()  returns FALSE (0000ms, 0722ms total)
T1B08 001:224 JLINK_IsHalted()  returns FALSE (0000ms, 0722ms total)
T1B08 001:225 JLINK_IsHalted()  returns FALSE (0000ms, 0722ms total)
T1B08 001:226 JLINK_IsHalted()  returns FALSE (0000ms, 0722ms total)
T1B08 001:227 JLINK_IsHalted()  returns FALSE (0001ms, 0723ms total)
T1B08 001:229 JLINK_IsHalted()  returns FALSE (0001ms, 0723ms total)
T1B08 001:231 JLINK_IsHalted() -- CPU_ReadMem(2 bytes @ 0x20000000)  returns TRUE (0005ms, 0727ms total)
T1B08 001:236 JLINK_ReadReg(R15 (PC))  returns 0x20000000 (0000ms, 0722ms total)
T1B08 001:236 JLINK_ClrBPEx(BPHandle = 0x0000000B)  returns 0x00 (0000ms, 0722ms total)
T1B08 001:236 JLINK_ReadReg(R0)  returns 0x00000000 (0000ms, 0722ms total)
T1B08 001:237 JLINK_WriteReg(R0, 0x08002800)  returns 0x00 (0000ms, 0722ms total)
T1B08 001:237 JLINK_WriteReg(R1, 0x00000800)  returns 0x00 (0000ms, 0722ms total)
T1B08 001:237 JLINK_WriteReg(R2, 0x000000FF)  returns 0x00 (0000ms, 0722ms total)
T1B08 001:237 JLINK_WriteReg(R3, 0x00000000)  returns 0x00 (0000ms, 0722ms total)
T1B08 001:237 JLINK_WriteReg(R4, 0x00000000)  returns 0x00 (0000ms, 0722ms total)
T1B08 001:237 JLINK_WriteReg(R5, 0x00000000)  returns 0x00 (0000ms, 0722ms total)
T1B08 001:237 JLINK_WriteReg(R6, 0x00000000)  returns 0x00 (0000ms, 0722ms total)
T1B08 001:237 JLINK_WriteReg(R7, 0x00000000)  returns 0x00 (0000ms, 0722ms total)
T1B08 001:237 JLINK_WriteReg(R8, 0x00000000)  returns 0x00 (0000ms, 0722ms total)
T1B08 001:237 JLINK_WriteReg(R9, 0x20000160)  returns 0x00 (0000ms, 0722ms total)
T1B08 001:237 JLINK_WriteReg(R10, 0x00000000)  returns 0x00 (0000ms, 0722ms total)
T1B08 001:237 JLINK_WriteReg(R11, 0x00000000)  returns 0x00 (0000ms, 0722ms total)
T1B08 001:237 JLINK_WriteReg(R12, 0x00000000)  returns 0x00 (0000ms, 0722ms total)
T1B08 001:237 JLINK_WriteReg(R13 (SP), 0x20000800)  returns 0x00 (0000ms, 0722ms total)
T1B08 001:237 JLINK_WriteReg(R14, 0x20000001)  returns 0x00 (0000ms, 0722ms total)
T1B08 001:237 JLINK_WriteReg(R15 (PC), 0x20000020)  returns 0x00 (0000ms, 0722ms total)
T1B08 001:237 JLINK_WriteReg(XPSR, 0x01000000)  returns 0x00 (0000ms, 0722ms total)
T1B08 001:237 JLINK_WriteReg(MSP, 0x20000800)  returns 0x00 (0000ms, 0722ms total)
T1B08 001:237 JLINK_WriteReg(PSP, 0x20000800)  returns 0x00 (0000ms, 0722ms total)
T1B08 001:237 JLINK_WriteReg(CFBP, 0x00000000)  returns 0x00 (0000ms, 0722ms total)
T1B08 001:237 JLINK_SetBPEx(Addr = 0x20000000, Type = 0xFFFFFFF2)  returns 0x0000000C (0000ms, 0722ms total)
T1B08 001:237 JLINK_Go() (0003ms, 0725ms total)
T1B08 001:240 JLINK_IsHalted() -- CPU_ReadMem(2 bytes @ 0x20000000)  returns TRUE (0005ms, 0730ms total)
T1B08 001:245 JLINK_ReadReg(R15 (PC))  returns 0x20000000 (0000ms, 0725ms total)
T1B08 001:245 JLINK_ClrBPEx(BPHandle = 0x0000000C)  returns 0x00 (0000ms, 0725ms total)
T1B08 001:245 JLINK_ReadReg(R0)  returns 0x00000001 (0000ms, 0725ms total)
T1B08 001:245 JLINK_WriteReg(R0, 0x08002800)  returns 0x00 (0000ms, 0725ms total)
T1B08 001:245 JLINK_WriteReg(R1, 0x00000800)  returns 0x00 (0000ms, 0725ms total)
T1B08 001:245 JLINK_WriteReg(R2, 0x000000FF)  returns 0x00 (0000ms, 0725ms total)
T1B08 001:245 JLINK_WriteReg(R3, 0x00000000)  returns 0x00 (0000ms, 0725ms total)
T1B08 001:245 JLINK_WriteReg(R4, 0x00000000)  returns 0x00 (0000ms, 0725ms total)
T1B08 001:245 JLINK_WriteReg(R5, 0x00000000)  returns 0x00 (0000ms, 0725ms total)
T1B08 001:245 JLINK_WriteReg(R6, 0x00000000)  returns 0x00 (0000ms, 0725ms total)
T1B08 001:245 JLINK_WriteReg(R7, 0x00000000)  returns 0x00 (0000ms, 0725ms total)
T1B08 001:245 JLINK_WriteReg(R8, 0x00000000)  returns 0x00 (0000ms, 0725ms total)
T1B08 001:245 JLINK_WriteReg(R9, 0x20000160)  returns 0x00 (0000ms, 0725ms total)
T1B08 001:245 JLINK_WriteReg(R10, 0x00000000)  returns 0x00 (0000ms, 0725ms total)
T1B08 001:245 JLINK_WriteReg(R11, 0x00000000)  returns 0x00 (0000ms, 0725ms total)
T1B08 001:245 JLINK_WriteReg(R12, 0x00000000)  returns 0x00 (0000ms, 0725ms total)
T1B08 001:245 JLINK_WriteReg(R13 (SP), 0x20000800)  returns 0x00 (0000ms, 0725ms total)
T1B08 001:245 JLINK_WriteReg(R14, 0x20000001)  returns 0x00 (0000ms, 0725ms total)
T1B08 001:245 JLINK_WriteReg(R15 (PC), 0x200000B6)  returns 0x00 (0000ms, 0725ms total)
T1B08 001:245 JLINK_WriteReg(XPSR, 0x01000000)  returns 0x00 (0000ms, 0725ms total)
T1B08 001:245 JLINK_WriteReg(MSP, 0x20000800)  returns 0x00 (0000ms, 0725ms total)
T1B08 001:245 JLINK_WriteReg(PSP, 0x20000800)  returns 0x00 (0000ms, 0725ms total)
T1B08 001:245 JLINK_WriteReg(CFBP, 0x00000000)  returns 0x00 (0000ms, 0725ms total)
T1B08 001:245 JLINK_SetBPEx(Addr = 0x20000000, Type = 0xFFFFFFF2)  returns 0x0000000D (0000ms, 0725ms total)
T1B08 001:245 JLINK_Go() (0003ms, 0728ms total)
T1B08 001:248 JLINK_IsHalted()  returns FALSE (0000ms, 0728ms total)
T1B08 001:249 JLINK_IsHalted()  returns FALSE (0001ms, 0729ms total)
T1B08 001:253 JLINK_IsHalted()  returns FALSE (0001ms, 0729ms total)
T1B08 001:255 JLINK_IsHalted()  returns FALSE (0001ms, 0729ms total)
T1B08 001:257 JLINK_IsHalted()  returns FALSE (0001ms, 0729ms total)
T1B08 001:259 JLINK_IsHalted()  returns FALSE (0000ms, 0728ms total)
T1B08 001:260 JLINK_IsHalted()  returns FALSE (0000ms, 0728ms total)
T1B08 001:261 JLINK_IsHalted()  returns FALSE (0000ms, 0728ms total)
T1B08 001:262 JLINK_IsHalted()  returns FALSE (0001ms, 0729ms total)
T1B08 001:264 JLINK_IsHalted()  returns FALSE (0001ms, 0729ms total)
T1B08 001:266 JLINK_IsHalted()  returns FALSE (0001ms, 0729ms total)
T1B08 001:268 JLINK_IsHalted()  returns FALSE (0001ms, 0729ms total)
T1B08 001:270 JLINK_IsHalted() -- CPU_ReadMem(2 bytes @ 0x20000000)  returns TRUE (0005ms, 0733ms total)
T1B08 001:275 JLINK_ReadReg(R15 (PC))  returns 0x20000000 (0000ms, 0728ms total)
T1B08 001:275 JLINK_ClrBPEx(BPHandle = 0x0000000D)  returns 0x00 (0000ms, 0728ms total)
T1B08 001:275 JLINK_ReadReg(R0)  returns 0x00000000 (0000ms, 0728ms total)
T1B08 001:275 JLINK_WriteReg(R0, 0x08003000)  returns 0x00 (0000ms, 0728ms total)
T1B08 001:276 JLINK_WriteReg(R1, 0x00000800)  returns 0x00 (0000ms, 0729ms total)
T1B08 001:276 JLINK_WriteReg(R2, 0x000000FF)  returns 0x00 (0000ms, 0729ms total)
T1B08 001:276 JLINK_WriteReg(R3, 0x00000000)  returns 0x00 (0000ms, 0729ms total)
T1B08 001:276 JLINK_WriteReg(R4, 0x00000000)  returns 0x00 (0000ms, 0729ms total)
T1B08 001:276 JLINK_WriteReg(R5, 0x00000000)  returns 0x00 (0000ms, 0729ms total)
T1B08 001:276 JLINK_WriteReg(R6, 0x00000000)  returns 0x00 (0000ms, 0729ms total)
T1B08 001:276 JLINK_WriteReg(R7, 0x00000000)  returns 0x00 (0000ms, 0729ms total)
T1B08 001:276 JLINK_WriteReg(R8, 0x00000000)  returns 0x00 (0000ms, 0729ms total)
T1B08 001:276 JLINK_WriteReg(R9, 0x20000160)  returns 0x00 (0000ms, 0729ms total)
T1B08 001:276 JLINK_WriteReg(R10, 0x00000000)  returns 0x00 (0000ms, 0729ms total)
T1B08 001:276 JLINK_WriteReg(R11, 0x00000000)  returns 0x00 (0000ms, 0729ms total)
T1B08 001:276 JLINK_WriteReg(R12, 0x00000000)  returns 0x00 (0000ms, 0729ms total)
T1B08 001:276 JLINK_WriteReg(R13 (SP), 0x20000800)  returns 0x00 (0000ms, 0729ms total)
T1B08 001:276 JLINK_WriteReg(R14, 0x20000001)  returns 0x00 (0000ms, 0729ms total)
T1B08 001:276 JLINK_WriteReg(R15 (PC), 0x20000020)  returns 0x00 (0000ms, 0729ms total)
T1B08 001:276 JLINK_WriteReg(XPSR, 0x01000000)  returns 0x00 (0000ms, 0729ms total)
T1B08 001:276 JLINK_WriteReg(MSP, 0x20000800)  returns 0x00 (0000ms, 0729ms total)
T1B08 001:276 JLINK_WriteReg(PSP, 0x20000800)  returns 0x00 (0000ms, 0729ms total)
T1B08 001:276 JLINK_WriteReg(CFBP, 0x00000000)  returns 0x00 (0000ms, 0729ms total)
T1B08 001:276 JLINK_SetBPEx(Addr = 0x20000000, Type = 0xFFFFFFF2)  returns 0x0000000E (0000ms, 0729ms total)
T1B08 001:276 JLINK_Go() (0002ms, 0731ms total)
T1B08 001:278 JLINK_IsHalted() -- CPU_ReadMem(2 bytes @ 0x20000000)  returns TRUE (0005ms, 0736ms total)
T1B08 001:283 JLINK_ReadReg(R15 (PC))  returns 0x20000000 (0000ms, 0731ms total)
T1B08 001:283 JLINK_ClrBPEx(BPHandle = 0x0000000E)  returns 0x00 (0000ms, 0731ms total)
T1B08 001:283 JLINK_ReadReg(R0)  returns 0x00000001 (0000ms, 0731ms total)
T1B08 001:283 JLINK_WriteReg(R0, 0x08003000)  returns 0x00 (0000ms, 0731ms total)
T1B08 001:283 JLINK_WriteReg(R1, 0x00000800)  returns 0x00 (0000ms, 0731ms total)
T1B08 001:283 JLINK_WriteReg(R2, 0x000000FF)  returns 0x00 (0000ms, 0731ms total)
T1B08 001:283 JLINK_WriteReg(R3, 0x00000000)  returns 0x00 (0000ms, 0731ms total)
T1B08 001:283 JLINK_WriteReg(R4, 0x00000000)  returns 0x00 (0000ms, 0731ms total)
T1B08 001:283 JLINK_WriteReg(R5, 0x00000000)  returns 0x00 (0000ms, 0731ms total)
T1B08 001:283 JLINK_WriteReg(R6, 0x00000000)  returns 0x00 (0000ms, 0731ms total)
T1B08 001:284 JLINK_WriteReg(R7, 0x00000000)  returns 0x00 (0000ms, 0731ms total)
T1B08 001:284 JLINK_WriteReg(R8, 0x00000000)  returns 0x00 (0000ms, 0731ms total)
T1B08 001:284 JLINK_WriteReg(R9, 0x20000160)  returns 0x00 (0000ms, 0731ms total)
T1B08 001:284 JLINK_WriteReg(R10, 0x00000000)  returns 0x00 (0000ms, 0731ms total)
T1B08 001:284 JLINK_WriteReg(R11, 0x00000000)  returns 0x00 (0000ms, 0731ms total)
T1B08 001:284 JLINK_WriteReg(R12, 0x00000000)  returns 0x00 (0000ms, 0731ms total)
T1B08 001:284 JLINK_WriteReg(R13 (SP), 0x20000800)  returns 0x00 (0000ms, 0731ms total)
T1B08 001:284 JLINK_WriteReg(R14, 0x20000001)  returns 0x00 (0000ms, 0731ms total)
T1B08 001:284 JLINK_WriteReg(R15 (PC), 0x200000B6)  returns 0x00 (0000ms, 0731ms total)
T1B08 001:284 JLINK_WriteReg(XPSR, 0x01000000)  returns 0x00 (0000ms, 0731ms total)
T1B08 001:284 JLINK_WriteReg(MSP, 0x20000800)  returns 0x00 (0000ms, 0731ms total)
T1B08 001:284 JLINK_WriteReg(PSP, 0x20000800)  returns 0x00 (0000ms, 0731ms total)
T1B08 001:284 JLINK_WriteReg(CFBP, 0x00000000)  returns 0x00 (0000ms, 0731ms total)
T1B08 001:284 JLINK_SetBPEx(Addr = 0x20000000, Type = 0xFFFFFFF2)  returns 0x0000000F (0000ms, 0731ms total)
T1B08 001:284 JLINK_Go() (0002ms, 0733ms total)
T1B08 001:286 JLINK_IsHalted()  returns FALSE (0001ms, 0734ms total)
T1B08 001:288 JLINK_IsHalted()  returns FALSE (0001ms, 0734ms total)
T1B08 001:290 JLINK_IsHalted()  returns FALSE (0001ms, 0734ms total)
T1B08 001:292 JLINK_IsHalted()  returns FALSE (0000ms, 0733ms total)
T1B08 001:293 JLINK_IsHalted()  returns FALSE (0001ms, 0734ms total)
T1B08 001:295 JLINK_IsHalted()  returns FALSE (0000ms, 0733ms total)
T1B08 001:296 JLINK_IsHalted()  returns FALSE (0001ms, 0734ms total)
T1B08 001:298 JLINK_IsHalted()  returns FALSE (0001ms, 0734ms total)
T1B08 001:302 JLINK_IsHalted()  returns FALSE (0001ms, 0734ms total)
T1B08 001:304 JLINK_IsHalted()  returns FALSE (0001ms, 0734ms total)
T1B08 001:306 JLINK_IsHalted()  returns FALSE (0001ms, 0734ms total)
T1B08 001:308 JLINK_IsHalted() -- CPU_ReadMem(2 bytes @ 0x20000000)  returns TRUE (0005ms, 0738ms total)
T1B08 001:313 JLINK_ReadReg(R15 (PC))  returns 0x20000000 (0000ms, 0733ms total)
T1B08 001:313 JLINK_ClrBPEx(BPHandle = 0x0000000F)  returns 0x00 (0000ms, 0733ms total)
T1B08 001:313 JLINK_ReadReg(R0)  returns 0x00000000 (0000ms, 0733ms total)
T1B08 001:314 JLINK_WriteReg(R0, 0x08003800)  returns 0x00 (0000ms, 0733ms total)
T1B08 001:314 JLINK_WriteReg(R1, 0x00000800)  returns 0x00 (0000ms, 0733ms total)
T1B08 001:314 JLINK_WriteReg(R2, 0x000000FF)  returns 0x00 (0000ms, 0733ms total)
T1B08 001:314 JLINK_WriteReg(R3, 0x00000000)  returns 0x00 (0000ms, 0733ms total)
T1B08 001:314 JLINK_WriteReg(R4, 0x00000000)  returns 0x00 (0000ms, 0733ms total)
T1B08 001:314 JLINK_WriteReg(R5, 0x00000000)  returns 0x00 (0000ms, 0733ms total)
T1B08 001:314 JLINK_WriteReg(R6, 0x00000000)  returns 0x00 (0000ms, 0733ms total)
T1B08 001:314 JLINK_WriteReg(R7, 0x00000000)  returns 0x00 (0000ms, 0733ms total)
T1B08 001:314 JLINK_WriteReg(R8, 0x00000000)  returns 0x00 (0000ms, 0733ms total)
T1B08 001:314 JLINK_WriteReg(R9, 0x20000160)  returns 0x00 (0000ms, 0733ms total)
T1B08 001:314 JLINK_WriteReg(R10, 0x00000000)  returns 0x00 (0000ms, 0733ms total)
T1B08 001:314 JLINK_WriteReg(R11, 0x00000000)  returns 0x00 (0000ms, 0733ms total)
T1B08 001:314 JLINK_WriteReg(R12, 0x00000000)  returns 0x00 (0000ms, 0733ms total)
T1B08 001:314 JLINK_WriteReg(R13 (SP), 0x20000800)  returns 0x00 (0000ms, 0733ms total)
T1B08 001:314 JLINK_WriteReg(R14, 0x20000001)  returns 0x00 (0000ms, 0733ms total)
T1B08 001:314 JLINK_WriteReg(R15 (PC), 0x20000020)  returns 0x00 (0000ms, 0733ms total)
T1B08 001:314 JLINK_WriteReg(XPSR, 0x01000000)  returns 0x00 (0000ms, 0733ms total)
T1B08 001:314 JLINK_WriteReg(MSP, 0x20000800)  returns 0x00 (0000ms, 0733ms total)
T1B08 001:314 JLINK_WriteReg(PSP, 0x20000800)  returns 0x00 (0000ms, 0733ms total)
T1B08 001:314 JLINK_WriteReg(CFBP, 0x00000000)  returns 0x00 (0000ms, 0733ms total)
T1B08 001:314 JLINK_SetBPEx(Addr = 0x20000000, Type = 0xFFFFFFF2)  returns 0x00000010 (0000ms, 0733ms total)
T1B08 001:314 JLINK_Go() (0003ms, 0736ms total)
T1B08 001:317 JLINK_IsHalted() -- CPU_ReadMem(2 bytes @ 0x20000000)  returns TRUE (0005ms, 0741ms total)
T1B08 001:322 JLINK_ReadReg(R15 (PC))  returns 0x20000000 (0000ms, 0736ms total)
T1B08 001:322 JLINK_ClrBPEx(BPHandle = 0x00000010)  returns 0x00 (0000ms, 0736ms total)
T1B08 001:322 JLINK_ReadReg(R0)  returns 0x00000001 (0000ms, 0736ms total)
T1B08 001:322 JLINK_WriteReg(R0, 0x08003800)  returns 0x00 (0000ms, 0736ms total)
T1B08 001:322 JLINK_WriteReg(R1, 0x00000800)  returns 0x00 (0000ms, 0736ms total)
T1B08 001:322 JLINK_WriteReg(R2, 0x000000FF)  returns 0x00 (0000ms, 0736ms total)
T1B08 001:322 JLINK_WriteReg(R3, 0x00000000)  returns 0x00 (0000ms, 0736ms total)
T1B08 001:322 JLINK_WriteReg(R4, 0x00000000)  returns 0x00 (0000ms, 0736ms total)
T1B08 001:322 JLINK_WriteReg(R5, 0x00000000)  returns 0x00 (0000ms, 0736ms total)
T1B08 001:322 JLINK_WriteReg(R6, 0x00000000)  returns 0x00 (0000ms, 0736ms total)
T1B08 001:322 JLINK_WriteReg(R7, 0x00000000)  returns 0x00 (0000ms, 0736ms total)
T1B08 001:322 JLINK_WriteReg(R8, 0x00000000)  returns 0x00 (0000ms, 0736ms total)
T1B08 001:322 JLINK_WriteReg(R9, 0x20000160)  returns 0x00 (0000ms, 0736ms total)
T1B08 001:322 JLINK_WriteReg(R10, 0x00000000)  returns 0x00 (0000ms, 0736ms total)
T1B08 001:322 JLINK_WriteReg(R11, 0x00000000)  returns 0x00 (0000ms, 0736ms total)
T1B08 001:322 JLINK_WriteReg(R12, 0x00000000)  returns 0x00 (0000ms, 0736ms total)
T1B08 001:322 JLINK_WriteReg(R13 (SP), 0x20000800)  returns 0x00 (0000ms, 0736ms total)
T1B08 001:322 JLINK_WriteReg(R14, 0x20000001)  returns 0x00 (0000ms, 0736ms total)
T1B08 001:322 JLINK_WriteReg(R15 (PC), 0x200000B6)  returns 0x00 (0000ms, 0736ms total)
T1B08 001:322 JLINK_WriteReg(XPSR, 0x01000000)  returns 0x00 (0000ms, 0736ms total)
T1B08 001:322 JLINK_WriteReg(MSP, 0x20000800)  returns 0x00 (0000ms, 0736ms total)
T1B08 001:322 JLINK_WriteReg(PSP, 0x20000800)  returns 0x00 (0000ms, 0736ms total)
T1B08 001:322 JLINK_WriteReg(CFBP, 0x00000000)  returns 0x00 (0000ms, 0736ms total)
T1B08 001:322 JLINK_SetBPEx(Addr = 0x20000000, Type = 0xFFFFFFF2)  returns 0x00000011 (0001ms, 0737ms total)
T1B08 001:323 JLINK_Go() (0002ms, 0739ms total)
T1B08 001:325 JLINK_IsHalted()  returns FALSE (0001ms, 0740ms total)
T1B08 001:327 JLINK_IsHalted()  returns FALSE (0002ms, 0741ms total)
T1B08 001:330 JLINK_IsHalted()  returns FALSE (0001ms, 0740ms total)
T1B08 001:332 JLINK_IsHalted()  returns FALSE (0001ms, 0740ms total)
T1B08 001:334 JLINK_IsHalted()  returns FALSE (0001ms, 0740ms total)
T1B08 001:336 JLINK_IsHalted()  returns FALSE (0001ms, 0740ms total)
T1B08 001:338 JLINK_IsHalted()  returns FALSE (0000ms, 0739ms total)
T1B08 001:340 JLINK_IsHalted()  returns FALSE (0001ms, 0740ms total)
T1B08 001:342 JLINK_IsHalted()  returns FALSE (0000ms, 0739ms total)
T1B08 001:343 JLINK_IsHalted()  returns FALSE (0002ms, 0741ms total)
T1B08 001:346 JLINK_IsHalted()  returns FALSE (0001ms, 0740ms total)
T1B08 001:348 JLINK_IsHalted() -- CPU_ReadMem(2 bytes @ 0x20000000)  returns TRUE (0005ms, 0744ms total)
T1B08 001:353 JLINK_ReadReg(R15 (PC))  returns 0x20000000 (0000ms, 0739ms total)
T1B08 001:353 JLINK_ClrBPEx(BPHandle = 0x00000011)  returns 0x00 (0000ms, 0739ms total)
